Title: *** cbstage.cir ***
Date: Sun Feb  8 19:33:10  2015
Plotname: AC Analysis
Flags: complex
No. Variables: 3
No. Points: 91
Variables:
	0	frequency	frequency grid=3
	1	db(v(out)/v(s))	notype
	2	ph(v(out))-ph(v(s))	notype
Values:
 0	1.000000000000000e+00,0.000000000000000e+00
	-2.474498234051448e+02,0.0
	-1.573813216953488e+00,0.0

 1	1.258925411794167e+00,0.000000000000000e+00
	-2.414498356869451e+02,0.0
	-1.574594364479518e+00,0.0

 2	1.584893192461114e+00,0.000000000000000e+00
	-2.354498551522434e+02,0.0
	-1.575577768959263e+00,0.0

 3	1.995262314968880e+00,0.000000000000000e+00
	-2.294498860025530e+02,0.0
	-1.576815797876081e+00,0.0

 4	2.511886431509581e+00,0.000000000000000e+00
	-2.234499348967246e+02,0.0
	-1.578374376013286e+00,0.0

 5	3.162277660168380e+00,0.000000000000000e+00
	-2.174500123880756e+02,0.0
	-1.580336493820855e+00,0.0

 6	3.981071705534974e+00,0.000000000000000e+00
	-2.114501352018609e+02,0.0
	-1.582806622234197e+00,0.0

 7	5.011872336272725e+00,0.000000000000000e+00
	-2.054503298442489e+02,0.0
	-1.585916266705032e+00,0.0

 8	6.309573444801935e+00,0.000000000000000e+00
	-1.994506383207330e+02,0.0
	-1.589830951538861e+00,0.0

 9	7.943282347242818e+00,0.000000000000000e+00
	-1.934511271956071e+02,0.0
	-1.594758997150804e+00,0.0

 10	1.000000000000001e+01,0.000000000000000e+00
	-1.874519019412385e+02,0.0
	-1.600962539058351e+00,0.0

 11	1.258925411794168e+01,0.000000000000000e+00
	-1.814531296574710e+02,0.0
	-1.608771338336316e+00,0.0

 12	1.584893192461115e+01,0.000000000000000e+00
	-1.754550750225837e+02,0.0
	-1.618600045141541e+00,0.0

 13	1.995262314968881e+01,0.000000000000000e+00
	-1.694581571290954e+02,0.0
	-1.630969687705627e+00,0.0

 14	2.511886431509582e+01,0.000000000000000e+00
	-1.634630392050780e+02,0.0
	-1.646534239231621e+00,0.0

 15	3.162277660168382e+01,0.000000000000000e+00
	-1.574707699187145e+02,0.0
	-1.666113098988548e+00,0.0

 16	3.981071705534977e+01,0.000000000000000e+00
	-1.514830050989171e+02,0.0
	-1.690730075626945e+00,0.0

 17	5.011872336272729e+01,0.000000000000000e+00
	-1.455023535873583e+02,0.0
	-1.721658709869226e+00,0.0

 18	6.309573444801940e+01,0.000000000000000e+00
	-1.395329116487167e+02,0.0
	-1.760472004754408e+00,0.0

 19	7.943282347242825e+01,0.000000000000000e+00
	-1.335810763127821e+02,0.0
	-1.809090915566921e+00,0.0

 20	1.000000000000001e+02,0.000000000000000e+00
	-1.276567531744887e+02,0.0
	-1.869818759874062e+00,0.0

 21	1.258925411794169e+02,0.000000000000000e+00
	-1.217750787399866e+02,0.0
	-1.945335942710604e+00,0.0

 22	1.584893192461116e+02,0.000000000000000e+00
	-1.159587128926851e+02,0.0
	-2.038609396918531e+00,0.0

 23	1.995262314968883e+02,0.000000000000000e+00
	-1.102405299149330e+02,0.0
	-2.152646467213034e+00,0.0

 24	2.511886431509584e+02,0.000000000000000e+00
	-1.046660233006946e+02,0.0
	-2.290009188114624e+00,0.0

 25	3.162277660168385e+02,0.000000000000000e+00
	-9.929392176874526e+01,0.0
	-2.452041679588557e+00,0.0

 26	3.981071705534980e+02,0.000000000000000e+00
	-9.419281179196871e+01,0.0
	-2.637905055585097e+00,0.0

 27	5.011872336272732e+02,0.000000000000000e+00
	-8.943207617636094e+01,0.0
	-2.843756243627847e+00,0.0

 28	6.309573444801945e+02,0.000000000000000e+00
	-8.506813489799862e+01,0.0
	-3.062576398312468e+00,0.0

 29	7.943282347242831e+02,0.000000000000000e+00
	-8.113059686727851e+01,0.0
	2.998195189807797e+00,0.0

 30	1.000000000000002e+03,0.000000000000000e+00
	-7.761425728041131e+01,0.0
	2.782254220921191e+00,0.0

 31	1.258925411794170e+03,0.000000000000000e+00
	-7.448053515630032e+01,0.0
	2.581619304087760e+00,0.0

 32	1.584893192461117e+03,0.000000000000000e+00
	-7.166770582350421e+01,0.0
	2.402425171597032e+00,0.0

 33	1.995262314968884e+03,0.000000000000000e+00
	-6.910534959914743e+01,0.0
	2.247586167149808e+00,0.0

 34	2.511886431509586e+03,0.000000000000000e+00
	-6.672707474394437e+01,0.0
	2.117207016901209e+00,0.0

 35	3.162277660168386e+03,0.000000000000000e+00
	-6.447787007182966e+01,0.0
	2.009494763355255e+00,0.0

 36	3.981071705534981e+03,0.000000000000000e+00
	-6.231608814620759e+01,0.0
	1.921690952824871e+00,0.0

 37	5.011872336272734e+03,0.000000000000000e+00
	-6.021210251375507e+01,0.0
	1.850761922022273e+00,0.0

 38	6.309573444801948e+03,0.000000000000000e+00
	-5.814570522393407e+01,0.0
	1.793806874960723e+00,0.0

 39	7.943282347242834e+03,0.000000000000000e+00
	-5.610349026828453e+01,0.0
	1.748250250910938e+00,0.0

 40	1.000000000000003e+04,0.000000000000000e+00
	-5.407672340125627e+01,0.0
	1.711901355622528e+00,0.0

 41	1.258925411794171e+04,0.000000000000000e+00
	-5.205977981929706e+01,0.0
	1.682944419810275e+00,0.0

 42	1.584893192461118e+04,0.000000000000000e+00
	-5.004906370360422e+01,0.0
	1.659898133992224e+00,0.0

 43	1.995262314968885e+04,0.000000000000000e+00
	-4.804228660023757e+01,0.0
	1.641565852899544e+00,0.0

 44	2.511886431509587e+04,0.000000000000000e+00
	-4.603799551100906e+01,0.0
	1.626986744156095e+00,0.0

 45	3.162277660168388e+04,0.000000000000000e+00
	-4.403526813062303e+01,0.0
	1.615392170303465e+00,0.0

 46	3.981071705534984e+04,0.000000000000000e+00
	-4.203351731895392e+01,0.0
	1.606168570299107e+00,0.0

 47	5.011872336272738e+04,0.000000000000000e+00
	-4.003236578623663e+01,0.0
	1.598826706422204e+00,0.0

 48	6.309573444801952e+04,0.000000000000000e+00
	-3.803156522115258e+01,0.0
	1.592976576450028e+00,0.0

 49	7.943282347242841e+04,0.000000000000000e+00
	-3.603094291768461e+01,0.0
	1.588307129432663e+00,0.0

 50	1.000000000000003e+05,0.000000000000000e+00
	-3.403036458405006e+01,0.0
	1.584569943906999e+00,0.0

 51	1.258925411794172e+05,0.000000000000000e+00
	-3.202970538553006e+01,0.0
	1.581566119380048e+00,0.0

 52	1.584893192461119e+05,0.000000000000000e+00
	-3.002882299782267e+01,0.0
	1.579135742827168e+00,0.0

 53	1.995262314968887e+05,0.000000000000000e+00
	-2.802752685353200e+01,0.0
	1.577149398331809e+00,0.0

 54	2.511886431509589e+05,0.000000000000000e+00
	-2.602553691379493e+01,0.0
	1.575501280402389e+00,0.0

 55	3.162277660168391e+05,0.000000000000000e+00
	-2.402242297988465e+01,0.0
	1.574103546763205e+00,0.0

 56	3.981071705534988e+05,0.000000000000000e+00
	-2.201751122435207e+01,0.0
	1.572881603486922e+00,0.0

 57	5.011872336272742e+05,0.000000000000000e+00
	-2.000973720819407e+01,0.0
	1.571770052722412e+00,0.0

 58	6.309573444801958e+05,0.000000000000000e+00
	-1.799741224764793e+01,0.0
	1.570709046549245e+00,0.0

 59	7.943282347242847e+05,0.000000000000000e+00
	-1.597784912954944e+01,0.0
	1.569640768386513e+00,0.0

 60	1.000000000000004e+06,0.000000000000000e+00
	-1.394675729855582e+01,0.0
	1.568505679612901e+00,0.0

 61	1.258925411794172e+06,0.000000000000000e+00
	-1.189725366931916e+01,0.0
	1.567237963046978e+00,0.0

 62	1.584893192461120e+06,0.000000000000000e+00
	-9.818215097525256e+00,0.0
	1.565759122436374e+00,0.0

 63	1.995262314968888e+06,0.000000000000000e+00
	-7.691457045967725e+00,0.0
	1.563967591279041e+00,0.0

 64	2.511886431509591e+06,0.000000000000000e+00
	-5.486693906230908e+00,0.0
	1.561719441691337e+00,0.0

 65	3.162277660168393e+06,0.000000000000000e+00
	-3.151948350168264e+00,0.0
	1.558787640873939e+00,0.0

 66	3.981071705534990e+06,0.000000000000000e+00
	-5.935000529052172e-01,0.0
	1.554762892762613e+00,0.0

 67	5.011872336272745e+06,0.000000000000000e+00
	2.372359083381462e+00,0.0
	1.548763660116970e+00,0.0

 68	6.309573444801961e+06,0.000000000000000e+00
	6.163935224053616e+00,0.0
	1.538315843223981e+00,0.0

 69	7.943282347242852e+06,0.000000000000000e+00
	1.207914002234761e+01,0.0
	1.512051014649157e+00,0.0

 70	1.000000000000005e+07,0.000000000000000e+00
	3.300087051754411e+01,0.0
	9.837483796883184e-01,0.0

 71	1.258925411794173e+07,0.000000000000000e+00
	1.353907894945187e+01,0.0
	-1.528724386124399e+00,0.0

 72	1.584893192461121e+07,0.000000000000000e+00
	6.930516074686350e+00,0.0
	-1.563693452789588e+00,0.0

 73	1.995262314968889e+07,0.000000000000000e+00
	2.922300852039386e+00,0.0
	-1.578879854123597e+00,0.0

 74	2.511886431509592e+07,0.000000000000000e+00
	-1.425123781694991e-01,0.0
	-1.590476147191694e+00,0.0

 75	3.162277660168395e+07,0.000000000000000e+00
	-2.754624404304993e+00,0.0
	-1.601797289246856e+00,0.0

 76	3.981071705534992e+07,0.000000000000000e+00
	-5.122380980730332e+00,0.0
	-1.614237257516143e+00,0.0

 77	5.011872336272748e+07,0.000000000000000e+00
	-7.350676257054126e+00,0.0
	-1.628743633123672e+00,0.0

 78	6.309573444801965e+07,0.000000000000000e+00
	-9.497945830959068e+00,0.0
	-1.646193463801976e+00,0.0

 79	7.943282347242856e+07,0.000000000000000e+00
	-1.159937398115689e+01,0.0
	-1.667534512804128e+00,0.0

 80	1.000000000000005e+08,0.000000000000000e+00
	-1.367807950942138e+01,0.0
	-1.693856636621683e+00,0.0

 81	1.258925411794174e+08,0.000000000000000e+00
	-1.575134025075153e+01,0.0
	-1.726431657370145e+00,0.0

 82	1.584893192461122e+08,0.000000000000000e+00
	-1.783462440593217e+01,0.0
	-1.766723183334712e+00,0.0

 83	1.995262314968891e+08,0.000000000000000e+00
	-1.994466349565090e+01,0.0
	-1.816347345678128e+00,0.0

 84	2.511886431509594e+08,0.000000000000000e+00
	-2.210208650117748e+01,0.0
	-1.876946419620370e+00,0.0

 85	3.162277660168397e+08,0.000000000000000e+00
	-2.433358494025836e+01,0.0
	-1.949922126525515e+00,0.0

 86	3.981071705534995e+08,0.000000000000000e+00
	-2.667292633796230e+01,0.0
	-2.035984277958081e+00,0.0

 87	5.011872336272751e+08,0.000000000000000e+00
	-2.915943885385503e+01,0.0
	-2.134544755883898e+00,0.0

 88	6.309573444801968e+08,0.000000000000000e+00
	-3.183250101071181e+01,0.0
	-2.243158619598811e+00,0.0

 89	7.943282347242861e+08,0.000000000000000e+00
	-3.472221740639100e+01,0.0
	-2.357405366110103e+00,0.0

 90	1.000000000000006e+09,0.000000000000000e+00
	-3.783987517632190e+01,0.0
	-2.471555835331881e+00,0.0

