Title: *** multistage.cir ***
Date: Wed Feb  4 17:19:39  2015
Plotname: AC Analysis
Flags: complex
No. Variables: 3
No. Points: 91
Variables:
	0	frequency	frequency grid=3
	1	db(v(out)/v(s))	notype
	2	ph(v(out))-ph(v(s))	notype
Values:
 0	1.000000000000000e+00,0.000000000000000e+00
	-2.178669599208774e+02,0.0
	8.820070350787007e-01,0.0

 1	1.258925411794167e+00,0.000000000000000e+00
	-2.127803054164749e+02,0.0
	7.665467891026815e-01,0.0

 2	1.584893192461114e+00,0.000000000000000e+00
	-2.079217655606604e+02,0.0
	6.515441550557426e-01,0.0

 3	1.995262314968880e+00,0.000000000000000e+00
	-2.032773334050976e+02,0.0
	5.425569416601826e-01,0.0

 4	2.511886431509581e+00,0.000000000000000e+00
	-1.988153908206857e+02,0.0
	4.436806569747893e-01,0.0

 5	3.162277660168380e+00,0.000000000000000e+00
	-1.944966222532823e+02,0.0
	3.569894600860037e-01,0.0

 6	3.981071705534974e+00,0.000000000000000e+00
	-1.902830704107325e+02,0.0
	2.827340766559038e-01,0.0

 7	5.011872336272725e+00,0.000000000000000e+00
	-1.861432468064582e+02,0.0
	2.199201436783089e-01,0.0

 8	6.309573444801935e+00,0.000000000000000e+00
	-1.820535075770810e+02,0.0
	1.668925221458367e-01,0.0

 9	7.943282347242818e+00,0.000000000000000e+00
	-1.779972934663796e+02,0.0
	1.217513847309978e-01,0.0

 10	1.000000000000001e+01,0.000000000000000e+00
	-1.739636456598370e+02,0.0
	8.258551814820908e-02,0.0

 11	1.258925411794168e+01,0.000000000000000e+00
	-1.699457800229897e+02,0.0
	4.757147545093993e-02,0.0

 12	1.584893192461115e+01,0.000000000000000e+00
	-1.659400237776833e+02,0.0
	1.499184551645829e-02,0.0

 13	1.995262314968881e+01,0.000000000000000e+00
	-1.619451808295300e+02,0.0
	-1.678817361147374e-02,0.0

 14	2.511886431509582e+01,0.000000000000000e+00
	-1.579623141001583e+02,0.0
	-4.936021985124355e-02,0.0

 15	3.162277660168382e+01,0.000000000000000e+00
	-1.539949311188467e+02,0.0
	-8.430967274827079e-02,0.0

 16	3.981071705534977e+01,0.000000000000000e+00
	-1.500495770031887e+02,0.0
	-1.232312714894696e-01,0.0

 17	5.011872336272729e+01,0.000000000000000e+00
	-1.461368330096584e+02,0.0
	-1.676972360643680e-01,0.0

 18	6.309573444801940e+01,0.000000000000000e+00
	-1.422726320236465e+02,0.0
	-2.191380404324254e-01,0.0

 19	7.943282347242825e+01,0.000000000000000e+00
	-1.384795488985185e+02,0.0
	-2.785824606489232e-01,0.0

 20	1.000000000000001e+02,0.000000000000000e+00
	-1.347872243784221e+02,0.0
	-3.462103939058577e-01,0.0

 21	1.258925411794169e+02,0.000000000000000e+00
	-1.312304393272169e+02,0.0
	-4.207402457011742e-01,0.0

 22	1.584893192461116e+02,0.000000000000000e+00
	-1.278431916127019e+02,0.0
	-4.988396736153003e-01,0.0

 23	1.995262314968883e+02,0.000000000000000e+00
	-1.246485899022259e+02,0.0
	-5.749533851154486e-01,0.0

 24	2.511886431509584e+02,0.000000000000000e+00
	-1.216477429381065e+02,0.0
	-6.419410480253420e-01,0.0

 25	3.162277660168385e+02,0.000000000000000e+00
	-1.188133785630945e+02,0.0
	-6.924985472378544e-01,0.0

 26	3.981071705534980e+02,0.000000000000000e+00
	-1.160918702430802e+02,0.0
	-7.207818993734815e-01,0.0

 27	5.011872336272732e+02,0.000000000000000e+00
	-1.134120243109032e+02,0.0
	-7.235862706817620e-01,0.0

 28	6.309573444801945e+02,0.000000000000000e+00
	-1.106964133168610e+02,0.0
	-7.008836046543363e-01,0.0

 29	7.943282347242831e+02,0.000000000000000e+00
	-1.078729730347952e+02,0.0
	-6.558455479331571e-01,0.0

 30	1.000000000000002e+03,0.000000000000000e+00
	-1.048864006869105e+02,0.0
	-5.943609168056452e-01,0.0

 31	1.258925411794170e+03,0.000000000000000e+00
	-1.017072876328228e+02,0.0
	-5.239166209395655e-01,0.0

 32	1.584893192461117e+03,0.000000000000000e+00
	-9.833479490138700e+01,0.0
	-4.520013390223067e-01,0.0

 33	1.995262314968884e+03,0.000000000000000e+00
	-9.479086388021162e+01,0.0
	-3.846579579655731e-01,0.0

 34	2.511886431509586e+03,0.000000000000000e+00
	-9.110928678661858e+01,0.0
	-3.257946687676816e-01,0.0

 35	3.162277660168386e+03,0.000000000000000e+00
	-8.732541214498711e+01,0.0
	-2.773276059753328e-01,0.0

 36	3.981071705534981e+03,0.000000000000000e+00
	-8.346995299997991e+01,0.0
	-2.397796884953486e-01,0.0

 37	5.011872336272734e+03,0.000000000000000e+00
	-7.956693051642965e+01,0.0
	-2.129316206940921e-01,0.0

 38	6.309573444801948e+03,0.000000000000000e+00
	-7.563416965206085e+01,0.0
	-1.963207156585499e-01,0.0

 39	7.943282347242834e+03,0.000000000000000e+00
	-7.168485972740552e+01,0.0
	-1.895567489605445e-01,0.0

 40	1.000000000000003e+04,0.000000000000000e+00
	-6.772934720543435e+01,0.0
	-1.924976116430891e-01,0.0

 41	1.258925411794171e+04,0.000000000000000e+00
	-6.377686945747931e+01,0.0
	-2.053343583845267e-01,0.0

 42	1.584893192461118e+04,0.000000000000000e+00
	-5.983723274717764e+01,0.0
	-2.286163452669718e-01,0.0

 43	1.995262314968885e+04,0.000000000000000e+00
	-5.592254348907729e+01,0.0
	-2.632224285295027e-01,0.0

 44	2.511886431509587e+04,0.000000000000000e+00
	-5.204906748640735e+01,0.0
	-3.102589641055084e-01,0.0

 45	3.162277660168388e+04,0.000000000000000e+00
	-4.823909783230452e+01,0.0
	-3.708423147214008e-01,0.0

 46	3.981071705534984e+04,0.000000000000000e+00
	-4.452229146870955e+01,0.0
	-4.457146655579051e-01,0.0

 47	5.011872336272738e+04,0.000000000000000e+00
	-4.093530067229059e+01,0.0
	-5.346790411853315e-01,0.0

 48	6.309573444801952e+04,0.000000000000000e+00
	-3.751807613955296e+01,0.0
	-6.359662468245897e-01,0.0

 49	7.943282347242841e+04,0.000000000000000e+00
	-3.430597145787897e+01,0.0
	-7.458504193154240e-01,0.0

 50	1.000000000000003e+05,0.000000000000000e+00
	-3.131957638931613e+01,0.0
	-8.589291986640005e-01,0.0

 51	1.258925411794172e+05,0.000000000000000e+00
	-2.855747943099884e+01,0.0
	-9.692016947159868e-01,0.0

 52	1.584893192461119e+05,0.000000000000000e+00
	-2.599678076304260e+01,0.0
	-1.071484710135268e+00,0.0

 53	1.995262314968887e+05,0.000000000000000e+00
	-2.360098476469149e+01,0.0
	-1.162410767031842e+00,0.0

 54	2.511886431509589e+05,0.000000000000000e+00
	-2.133010734283944e+01,0.0
	-1.240618023936861e+00,0.0

 55	3.162277660168391e+05,0.000000000000000e+00
	-1.914807748509185e+01,0.0
	-1.306323022481738e+00,0.0

 56	3.981071705534988e+05,0.000000000000000e+00
	-1.702592495313551e+01,0.0
	-1.360696279905750e+00,0.0

 57	5.011872336272742e+05,0.000000000000000e+00
	-1.494180946330958e+01,0.0
	-1.405333139322281e+00,0.0

 58	6.309573444801958e+05,0.000000000000000e+00
	-1.287948409497602e+01,0.0
	-1.441911684529251e+00,0.0

 59	7.943282347242847e+05,0.000000000000000e+00
	-1.082625821073099e+01,0.0
	-1.472014050801322e+00,0.0

 60	1.000000000000004e+06,0.000000000000000e+00
	-8.770878485898100e+00,0.0
	-1.497056335410972e+00,0.0

 61	1.258925411794172e+06,0.000000000000000e+00
	-6.701292832041441e+00,0.0
	-1.518280377530521e+00,0.0

 62	1.584893192461120e+06,0.000000000000000e+00
	-4.601946062137274e+00,0.0
	-1.536777573365425e+00,0.0

 63	1.995262314968888e+06,0.000000000000000e+00
	-2.449899637417968e+00,0.0
	-1.553529492880741e+00,0.0

 64	2.511886431509591e+06,0.000000000000000e+00
	-2.083757364749783e-01,0.0
	-1.569461545602669e+00,0.0

 65	3.162277660168393e+06,0.000000000000000e+00
	2.185407903649002e+00,0.0
	-1.585518943309716e+00,0.0

 66	3.981071705534990e+06,0.000000000000000e+00
	4.846329872567555e+00,0.0
	-1.602804003859996e+00,0.0

 67	5.011872336272745e+06,0.000000000000000e+00
	8.007648977772803e+00,0.0
	-1.622930411381375e+00,0.0

 68	6.309573444801961e+06,0.000000000000000e+00
	1.223980635226344e+01,0.0
	-1.649451619596821e+00,0.0

 69	7.943282347242852e+06,0.000000000000000e+00
	1.965982775296811e+01,0.0
	-1.700108456823696e+00,0.0

 70	1.000000000000005e+07,0.000000000000000e+00
	3.001843740093310e+01,0.0
	1.638191139209303e+00,0.0

 71	1.258925411794173e+07,0.000000000000000e+00
	1.549834483150073e+01,0.0
	1.469055712386712e+00,0.0

 72	1.584893192461121e+07,0.000000000000000e+00
	1.006754916711111e+01,0.0
	1.416662847482399e+00,0.0

 73	1.995262314968889e+07,0.000000000000000e+00
	6.432354215771312e+00,0.0
	1.364424115179572e+00,0.0

 74	2.511886431509592e+07,0.000000000000000e+00
	3.527193912095858e+00,0.0
	1.303798782895355e+00,0.0

 75	3.162277660168395e+07,0.000000000000000e+00
	9.834945180117737e-01,0.0
	1.230771973996301e+00,0.0

 76	3.981071705534992e+07,0.000000000000000e+00
	-1.368344054123547e+00,0.0
	1.142053890285116e+00,0.0

 77	5.011872336272748e+07,0.000000000000000e+00
	-3.619660445919593e+00,0.0
	1.034673835092506e+00,0.0

 78	6.309573444801965e+07,0.000000000000000e+00
	-5.824710723990961e+00,0.0
	9.063162416290280e-01,0.0

 79	7.943282347242856e+07,0.000000000000000e+00
	-8.016298970234473e+00,0.0
	7.561009386994689e-01,0.0

 80	1.000000000000005e+08,0.000000000000000e+00
	-1.021006087623631e+01,0.0
	5.856499091222536e-01,0.0

 81	1.258925411794174e+08,0.000000000000000e+00
	-1.240305946714001e+01,0.0
	4.000302507081755e-01,0.0

 82	1.584893192461122e+08,0.000000000000000e+00
	-1.457183030555817e+01,0.0
	2.078555531348868e-01,0.0

 83	1.995262314968891e+08,0.000000000000000e+00
	-1.667539118860952e+01,0.0
	1.990895033754080e-02,0.0

 84	2.511886431509594e+08,0.000000000000000e+00
	-1.866532230862369e+01,0.0
	-1.535949601343714e-01,0.0

 85	3.162277660168397e+08,0.000000000000000e+00
	-2.049928798329423e+01,0.0
	-3.060109037689265e-01,0.0

 86	3.981071705534995e+08,0.000000000000000e+00
	-2.215304562641475e+01,0.0
	-4.360960928404237e-01,0.0

 87	5.011872336272751e+08,0.000000000000000e+00
	-2.362925717109091e+01,0.0
	-5.478157430909348e-01,0.0

 88	6.309573444801968e+08,0.000000000000000e+00
	-2.496205916719937e+01,0.0
	-6.482133546323763e-01,0.0

 89	7.943282347242861e+08,0.000000000000000e+00
	-2.621368528797215e+01,0.0
	-7.442912194402792e-01,0.0

 90	1.000000000000006e+09,0.000000000000000e+00
	-2.746053481389117e+01,0.0
	-8.403205842936676e-01,0.0

