Title: *** multistage.cir ***
Date: Sun Feb  8 19:24:08  2015
Plotname: AC Analysis
Flags: complex
No. Variables: 3
No. Points: 91
Variables:
	0	frequency	frequency grid=3
	1	db(v(out)/v(s))	notype
	2	ph(v(out))-ph(v(s))	notype
Values:
 0	1.000000000000000e+00,0.000000000000000e+00
	-2.654468029130156e+02,0.0
	1.552978897990498e+00,0.0

 1	1.258925411794167e+00,0.000000000000000e+00
	-2.594475884003359e+02,0.0
	1.548366844808506e+00,0.0

 2	1.584893192461114e+00,0.000000000000000e+00
	-2.534488330238037e+02,0.0
	1.542561938711265e+00,0.0

 3	1.995262314968880e+00,0.000000000000000e+00
	-2.474508048909647e+02,0.0
	1.535256636736618e+00,0.0

 4	2.511886431509581e+00,0.000000000000000e+00
	-2.414539282626741e+02,0.0
	1.526065072495932e+00,0.0

 5	3.162277660168380e+00,0.000000000000000e+00
	-2.354588738907529e+02,0.0
	1.514504069840488e+00,0.0

 6	3.981071705534974e+00,0.000000000000000e+00
	-2.294667007003625e+02,0.0
	1.499970511879731e+00,0.0

 7	5.011872336272725e+00,0.000000000000000e+00
	-2.234790766254545e+02,0.0
	1.481715352683896e+00,0.0

 8	6.309573444801935e+00,0.000000000000000e+00
	-2.174986194113237e+02,0.0
	1.458815785880190e+00,0.0

 9	7.943282347242818e+00,0.000000000000000e+00
	-2.115294141772652e+02,0.0
	1.430149624782650e+00,0.0

 10	1.000000000000001e+01,0.000000000000000e+00
	-2.055777790489242e+02,0.0
	1.394380830589371e+00,0.0

 11	1.258925411794168e+01,0.000000000000000e+00
	-1.996533491120417e+02,0.0
	1.349973758423442e+00,0.0

 12	1.584893192461115e+01,0.000000000000000e+00
	-1.937704977971376e+02,0.0
	1.295267159557226e+00,0.0

 13	1.995262314968881e+01,0.000000000000000e+00
	-1.879499461045584e+02,0.0
	1.228655333392558e+00,0.0

 14	2.511886431509582e+01,0.000000000000000e+00
	-1.822200320686363e+02,0.0
	1.148931440175465e+00,0.0

 15	3.162277660168382e+01,0.000000000000000e+00
	-1.766165084440090e+02,0.0
	1.055816170759601e+00,0.0

 16	3.981071705534977e+01,0.000000000000000e+00
	-1.711792391789593e+02,0.0
	9.505785378974050e-01,0.0

 17	5.011872336272729e+01,0.000000000000000e+00
	-1.659447337410656e+02,0.0
	8.364546000733120e-01,0.0

 18	6.309573444801940e+01,0.000000000000000e+00
	-1.609360506392125e+02,0.0
	7.184443368713728e-01,0.0

 19	7.943282347242825e+01,0.000000000000000e+00
	-1.561550148428706e+02,0.0
	6.023002043739535e-01,0.0

 20	1.000000000000001e+02,0.000000000000000e+00
	-1.515819010716127e+02,0.0
	4.931036171646949e-01,0.0

 21	1.258925411794169e+02,0.000000000000000e+00
	-1.471829152028550e+02,0.0
	3.941886426974894e-01,0.0

 22	1.584893192461116e+02,0.000000000000000e+00
	-1.429206412599792e+02,0.0
	3.068723961542658e-01,0.0

 23	1.995262314968883e+02,0.000000000000000e+00
	-1.387622745309766e+02,0.0
	2.308633652225356e-01,0.0

 24	2.511886431509584e+02,0.000000000000000e+00
	-1.346836969008732e+02,0.0
	1.649450034203142e-01,0.0

 25	3.162277660168385e+02,0.000000000000000e+00
	-1.306701121306045e+02,0.0
	1.076363530323387e-01,0.0

 26	3.981071705534980e+02,0.000000000000000e+00
	-1.267144840881855e+02,0.0
	5.772572704380748e-02,0.0

 27	5.011872336272732e+02,0.000000000000000e+00
	-1.228143475719381e+02,0.0
	1.465779324298950e-02,0.0

 28	6.309573444801945e+02,0.000000000000000e+00
	-1.189670804355193e+02,0.0
	-2.129618787525474e-02,0.0

 29	7.943282347242831e+02,0.000000000000000e+00
	-1.151644723392733e+02,0.0
	-4.924505327220063e-02,0.0

 30	1.000000000000002e+03,0.000000000000000e+00
	-1.113893361740664e+02,0.0
	-6.834905900724132e-02,0.0

 31	1.258925411794170e+03,0.000000000000000e+00
	-1.076175693253822e+02,0.0
	-7.867843968974149e-02,0.0

 32	1.584893192461117e+03,0.000000000000000e+00
	-1.038255951075397e+02,0.0
	-8.164465715913193e-02,0.0

 33	1.995262314968884e+03,0.000000000000000e+00
	-9.999801520459698e+01,0.0
	-7.964948045406854e-02,0.0

 34	2.511886431509586e+03,0.000000000000000e+00
	-9.613022949463291e+01,0.0
	-7.528511831840820e-02,0.0

 35	3.162277660168386e+03,0.000000000000000e+00
	-9.222585522564054e+01,0.0
	-7.069305415327602e-02,0.0

 36	3.981071705534981e+03,0.000000000000000e+00
	-8.829237111348299e+01,0.0
	-6.735317740841393e-02,0.0

 37	5.011872336272734e+03,0.000000000000000e+00
	-8.433778457981589e+01,0.0
	-6.619018579705213e-02,0.0

 38	6.309573444801948e+03,0.000000000000000e+00
	-8.036902543258670e+01,0.0
	-6.778838402463028e-02,0.0

 39	7.943282347242834e+03,0.000000000000000e+00
	-7.639159217308836e+01,0.0
	-7.258845733901539e-02,0.0

 40	1.000000000000003e+04,0.000000000000000e+00
	-7.240982817808367e+01,0.0
	-8.102963636488753e-02,0.0

 41	1.258925411794171e+04,0.000000000000000e+00
	-6.842744042971920e+01,0.0
	-9.364394906399880e-02,0.0

 42	1.584893192461118e+04,0.000000000000000e+00
	-6.444810759064035e+01,0.0
	-1.111188075555884e-01,0.0

 43	1.995262314968885e+04,0.000000000000000e+00
	-6.047616713791994e+01,0.0
	-1.343396932303979e-01,0.0

 44	2.511886431509587e+04,0.000000000000000e+00
	-5.651744302924212e+01,0.0
	-1.644159824603463e-01,0.0

 45	3.162277660168388e+04,0.000000000000000e+00
	-5.258030193403552e+01,0.0
	-2.026821860814373e-01,0.0

 46	3.981071705534984e+04,0.000000000000000e+00
	-4.867700582413418e+01,0.0
	-2.506530947502162e-01,0.0

 47	5.011872336272738e+04,0.000000000000000e+00
	-4.482532088556157e+01,0.0
	-3.098941811590262e-01,0.0

 48	6.309573444801952e+04,0.000000000000000e+00
	-4.105006618250882e+01,0.0
	-3.817537987081035e-01,0.0

 49	7.943282347242841e+04,0.000000000000000e+00
	-3.738376828186903e+01,0.0
	-4.669120161681118e-01,0.0

 50	1.000000000000003e+05,0.000000000000000e+00
	-3.386495949756353e+01,0.0
	-5.647737496344777e-01,0.0

 51	1.258925411794172e+05,0.000000000000000e+00
	-3.053258584082802e+01,0.0
	-6.729041089042417e-01,0.0

 52	1.584893192461119e+05,0.000000000000000e+00
	-2.741662056521868e+01,0.0
	-7.868966189277872e-01,0.0

 53	1.995262314968887e+05,0.000000000000000e+00
	-2.452839045238949e+01,0.0
	-9.010243384542014e-01,0.0

 54	2.511886431509589e+05,0.000000000000000e+00
	-2.185631142732822e+01,0.0
	-1.009559411400282e+00,0.0

 55	3.162277660168391e+05,0.000000000000000e+00
	-1.936998182013005e+01,0.0
	-1.108096549017997e+00,0.0

 56	3.981071705534988e+05,0.000000000000000e+00
	-1.702971112907403e+01,0.0
	-1.194212719944058e+00,0.0

 57	5.011872336272742e+05,0.000000000000000e+00
	-1.479576047619942e+01,0.0
	-1.267343001271318e+00,0.0

 58	6.309573444801958e+05,0.000000000000000e+00
	-1.263371659325718e+01,0.0
	-1.328220390645801e+00,0.0

 59	7.943282347242847e+05,0.000000000000000e+00
	-1.051581843501697e+01,0.0
	-1.378271604956833e+00,0.0

 60	1.000000000000004e+06,0.000000000000000e+00
	-8.419666327598199e+00,0.0
	-1.419169015120025e+00,0.0

 61	1.258925411794172e+06,0.000000000000000e+00
	-6.325611724793413e+00,0.0
	-1.452568023783634e+00,0.0

 62	1.584893192461120e+06,0.000000000000000e+00
	-4.213362717091315e+00,0.0
	-1.479986037088427e+00,0.0

 63	1.995262314968888e+06,0.000000000000000e+00
	-2.057542442713977e+00,0.0
	-1.502771642128090e+00,0.0

 64	2.511886431509591e+06,0.000000000000000e+00
	1.789672749337828e-01,0.0
	-1.522130393990637e+00,0.0

 65	3.162277660168393e+06,0.000000000000000e+00
	2.556743125158451e+00,0.0
	-1.539200167929170e+00,0.0

 66	3.981071705534990e+06,0.000000000000000e+00
	5.183974129949367e+00,0.0
	-1.555216102180645e+00,0.0

 67	5.011872336272745e+06,0.000000000000000e+00
	8.275986520722638e+00,0.0
	-1.571959313555011e+00,0.0

 68	6.309573444801961e+06,0.000000000000000e+00
	1.234426755286442e+01,0.0
	-1.593540280538444e+00,0.0

 69	7.943282347242852e+06,0.000000000000000e+00
	1.915641284318202e+01,0.0
	-1.640153717215408e+00,0.0

 70	1.000000000000005e+07,0.000000000000000e+00
	3.525403561732277e+01,0.0
	2.010495976888739e+00,0.0

 71	1.258925411794173e+07,0.000000000000000e+00
	1.695012550499930e+01,0.0
	1.602985703853369e+00,0.0

 72	1.584893192461121e+07,0.000000000000000e+00
	1.118596070707221e+01,0.0
	1.566085827960555e+00,0.0

 73	1.995262314968889e+07,0.000000000000000e+00
	7.443000700308515e+00,0.0
	1.543631280239531e+00,0.0

 74	2.511886431509592e+07,0.000000000000000e+00
	4.497779686361275e+00,0.0
	1.523245053821881e+00,0.0

 75	3.162277660168395e+07,0.000000000000000e+00
	1.947652195692856e+00,0.0
	1.501556620154115e+00,0.0

 76	3.981071705534992e+07,0.000000000000000e+00
	-3.863414212339567e-01,0.0
	1.476710786252076e+00,0.0

 77	5.011872336272748e+07,0.000000000000000e+00
	-2.596806043288250e+00,0.0
	1.447146907304789e+00,0.0

 78	6.309573444801965e+07,0.000000000000000e+00
	-4.736559639014351e+00,0.0
	1.411246881153423e+00,0.0

 79	7.943282347242856e+07,0.000000000000000e+00
	-6.838402836351033e+00,0.0
	1.367189789464898e+00,0.0

 80	1.000000000000005e+08,0.000000000000000e+00
	-8.924973052603676e+00,0.0
	1.312885617080213e+00,0.0

 81	1.258925411794174e+08,0.000000000000000e+00
	-1.101434452412585e+01,0.0
	1.245973706525131e+00,0.0

 82	1.584893192461122e+08,0.000000000000000e+00
	-1.312351261572850e+01,0.0
	1.163916407109069e+00,0.0

 83	1.995262314968891e+08,0.000000000000000e+00
	-1.527040859632969e+01,0.0
	1.064248214115017e+00,0.0

 84	2.511886431509594e+08,0.000000000000000e+00
	-1.747412114295378e+01,0.0
	9.450512030805265e-01,0.0

 85	3.162277660168397e+08,0.000000000000000e+00
	-1.975223425377565e+01,0.0
	8.056824961387851e-01,0.0

 86	3.981071705534995e+08,0.000000000000000e+00
	-2.211412478866336e+01,0.0
	6.476327747269220e-01,0.0

 87	5.011872336272751e+08,0.000000000000000e+00
	-2.455084162599320e+01,0.0
	4.751718428481047e-01,0.0

 88	6.309573444801968e+08,0.000000000000000e+00
	-2.702608665095115e+01,0.0
	2.953263914495964e-01,0.0

 89	7.943282347242861e+08,0.000000000000000e+00
	-2.947568362649574e+01,0.0
	1.169460093475984e-01,0.0

 90	1.000000000000006e+09,0.000000000000000e+00
	-3.181966625432011e+01,0.0
	-5.098925665287921e-02,0.0

