Title: *** multistage.cir ***
Date: Thu Feb  5 23:17:01  2015
Plotname: AC Analysis
Flags: complex
No. Variables: 3
No. Points: 41
Variables:
	0	frequency	frequency grid=3
	1	db(v(out)/v(in))	notype
	2	ph(v(out))-ph(v(in))	notype
Values:
 0	1.000000000000000e+05,0.000000000000000e+00
	-9.111005210852221e+01,0.0
	-1.666324152436122e-01,0.0

 1	1.258925411794167e+05,0.000000000000000e+00
	-8.365477638061621e+01,0.0
	-3.878613990375314e-01,0.0

 2	1.584893192461114e+05,0.000000000000000e+00
	-7.659155951511434e+01,0.0
	-5.909695097835264e-01,0.0

 3	1.995262314968880e+05,0.000000000000000e+00
	-6.984474240281720e+01,0.0
	-7.699922236171963e-01,0.0

 4	2.511886431509581e+05,0.000000000000000e+00
	-6.333456188919222e+01,0.0
	-9.228639295266429e-01,0.0

 5	3.162277660168380e+05,0.000000000000000e+00
	-5.699053850804339e+01,0.0
	-1.050446200443472e+00,0.0

 6	3.981071705534974e+05,0.000000000000000e+00
	-5.075651449895157e+01,0.0
	-1.155283003498753e+00,0.0

 7	5.011872336272725e+05,0.000000000000000e+00
	-4.458985699465003e+01,0.0
	-1.240599105423962e+00,0.0

 8	6.309573444801936e+05,0.000000000000000e+00
	-3.845788809787710e+01,0.0
	-1.309672410214783e+00,0.0

 9	7.943282347242819e+05,0.000000000000000e+00
	-3.233339546210304e+01,0.0
	-1.365513568579816e+00,0.0

 10	1.000000000000001e+06,0.000000000000000e+00
	-2.618979797147539e+01,0.0
	-1.410739519729299e+00,0.0

 11	1.258925411794168e+06,0.000000000000000e+00
	-1.999563548794216e+01,0.0
	-1.447550697745429e+00,0.0

 12	1.584893192461115e+06,0.000000000000000e+00
	-1.370732209694335e+01,0.0
	-1.477744189188434e+00,0.0

 13	1.995262314968881e+06,0.000000000000000e+00
	-7.258107158100430e+00,0.0
	-1.502717225403853e+00,0.0

 14	2.511886431509582e+06,0.000000000000000e+00
	-5.391209369213117e-01,0.0
	-1.523384103914798e+00,0.0

 15	3.162277660168382e+06,0.000000000000000e+00
	6.636830925112070e+00,0.0
	-1.539823075467217e+00,0.0

 16	3.981071705534976e+06,0.000000000000000e+00
	1.461324922805366e+01,0.0
	-1.549918692845441e+00,0.0

 17	5.011872336272728e+06,0.000000000000000e+00
	2.408682850887679e+01,0.0
	-1.543287781740970e+00,0.0

 18	6.309573444801939e+06,0.000000000000000e+00
	3.671670571386124e+01,0.0
	-1.461528538891619e+00,0.0

 19	7.943282347242823e+06,0.000000000000000e+00
	5.564608924527634e+01,0.0
	-7.720571304025381e-01,0.0

 20	1.000000000000001e+07,0.000000000000000e+00
	6.811738148242512e+01,0.0
	-2.966095133391510e+00,0.0

 21	1.258925411794169e+07,0.000000000000000e+00
	4.511206147190905e+01,0.0
	2.245071229057660e+00,0.0

 22	1.584893192461115e+07,0.000000000000000e+00
	3.030881467080074e+01,0.0
	1.834626042334136e+00,0.0

 23	1.995262314968882e+07,0.000000000000000e+00
	1.960384657811495e+01,0.0
	1.691600456230682e+00,0.0

 24	2.511886431509583e+07,0.000000000000000e+00
	1.097590993021436e+01,0.0
	1.615900843634289e+00,0.0

 25	3.162277660168384e+07,0.000000000000000e+00
	3.438787026936736e+00,0.0
	1.561994238856387e+00,0.0

 26	3.981071705534978e+07,0.000000000000000e+00
	-3.483343815256692e+00,0.0
	1.515065691178936e+00,0.0

 27	5.011872336272731e+07,0.000000000000000e+00
	-1.004098528553338e+01,0.0
	1.468388815158479e+00,0.0

 28	6.309573444801943e+07,0.000000000000000e+00
	-1.637365745456494e+01,0.0
	1.417776297891296e+00,0.0

 29	7.943282347242829e+07,0.000000000000000e+00
	-2.256048561878285e+01,0.0
	1.359916597501657e+00,0.0

 30	1.000000000000002e+08,0.000000000000000e+00
	-2.864490217681947e+01,0.0
	1.291524029855187e+00,0.0

 31	1.258925411794170e+08,0.000000000000000e+00
	-3.464685472318715e+01,0.0
	1.209157319711302e+00,0.0

 32	1.584893192461117e+08,0.000000000000000e+00
	-4.056858352849036e+01,0.0
	1.109115592581444e+00,0.0

 33	1.995262314968884e+08,0.000000000000000e+00
	-4.639700110706575e+01,0.0
	9.873768816917590e-01,0.0

 34	2.511886431509585e+08,0.000000000000000e+00
	-5.210350867834865e+01,0.0
	8.400321387169940e-01,0.0

 35	3.162277660168386e+08,0.000000000000000e+00
	-5.764388544458345e+01,0.0
	6.638938575956046e-01,0.0

 36	3.981071705534981e+08,0.000000000000000e+00
	-6.296041537745437e+01,0.0
	4.575914970865884e-01,0.0

 37	5.011872336272734e+08,0.000000000000000e+00
	-6.798875989164625e+01,0.0
	2.230944881271533e-01,0.0

 38	6.309573444801947e+08,0.000000000000000e+00
	-7.267439246923294e+01,0.0
	-3.327441214513516e-02,0.0

 39	7.943282347242833e+08,0.000000000000000e+00
	-7.699199340226707e+01,0.0
	-3.005486698997628e-01,0.0

 40	1.000000000000002e+09,0.000000000000000e+00
	-8.095619735955518e+01,0.0
	-5.643227468855346e-01,0.0

