Title: *** multistage.cir ***
Date: Sat Feb  7 15:38:36  2015
Plotname: AC Analysis
Flags: complex
No. Variables: 3
No. Points: 41
Variables:
	0	frequency	frequency grid=3
	1	db(v(out)/v(in))	notype
	2	ph(v(out))-ph(v(in))	notype
Values:
 0	1.000000000000000e+05,0.000000000000000e+00
	-9.115337553294508e+01,0.0
	-7.750989991834251e-02,0.0

 1	1.258925411794167e+05,0.000000000000000e+00
	-8.368305613705587e+01,0.0
	-3.169737631602960e-01,0.0

 2	1.584893192461114e+05,0.000000000000000e+00
	-7.661081369498872e+01,0.0
	-5.346135803619517e-01,0.0

 3	1.995262314968880e+05,0.000000000000000e+00
	-6.985907586157256e+01,0.0
	-7.252029776855058e-01,0.0

 4	2.511886431509581e+05,0.000000000000000e+00
	-6.334703162939540e+01,0.0
	-8.872742679095937e-01,0.0

 5	3.162277660168380e+05,0.000000000000000e+00
	-5.700380571073362e+01,0.0
	-1.022169788149568e+00,0.0

 6	3.981071705534974e+05,0.000000000000000e+00
	-5.077341695600148e+01,0.0
	-1.132818231320130e+00,0.0

 7	5.011872336272725e+05,0.000000000000000e+00
	-4.461402373492058e+01,0.0
	-1.222751214656658e+00,0.0

 8	6.309573444801936e+05,0.000000000000000e+00
	-3.849453080738444e+01,0.0
	-1.295490670801401e+00,0.0

 9	7.943282347242819e+05,0.000000000000000e+00
	-3.239045499313691e+01,0.0
	-1.354240598879550e+00,0.0

 10	1.000000000000001e+06,0.000000000000000e+00
	-2.627971344188877e+01,0.0
	-1.401770149468329e+00,0.0

 11	1.258925411794168e+06,0.000000000000000e+00
	-2.013816956457645e+01,0.0
	-1.440398204844678e+00,0.0

 12	1.584893192461115e+06,0.000000000000000e+00
	-1.393418658527664e+01,0.0
	-1.472012785971492e+00,0.0

 13	1.995262314968881e+06,0.000000000000000e+00
	-7.620742015707145e+00,0.0
	-1.498083649780835e+00,0.0

 14	2.511886431509582e+06,0.000000000000000e+00
	-1.122270283471258e+00,0.0
	-1.519608070769097e+00,0.0

 15	3.162277660168382e+06,0.000000000000000e+00
	5.690069195111312e+00,0.0
	-1.536882123246446e+00,0.0

 16	3.981071705534976e+06,0.000000000000000e+00
	1.305109831047839e+01,0.0
	-1.548742080836492e+00,0.0

 17	5.011872336272728e+06,0.000000000000000e+00
	2.143408463328297e+01,0.0
	-1.549902202267036e+00,0.0

 18	6.309573444801939e+06,0.000000000000000e+00
	3.197868795974250e+01,0.0
	-1.518504803406815e+00,0.0

 19	7.943282347242823e+06,0.000000000000000e+00
	4.864948359469086e+01,0.0
	-1.303294968190839e+00,0.0

 20	1.000000000000001e+07,0.000000000000000e+00
	6.983251392302587e+01,0.0
	-2.712705404936597e+00,0.0

 21	1.258925411794169e+07,0.000000000000000e+00
	4.476207001989490e+01,0.0
	-2.142729684732781e+00,0.0

 22	1.584893192461115e+07,0.000000000000000e+00
	3.663809629822320e+01,0.0
	-2.162999967662143e+00,0.0

 23	1.995262314968882e+07,0.000000000000000e+00
	3.223296675366599e+01,0.0
	-2.313496829193348e+00,0.0

 24	2.511886431509583e+07,0.000000000000000e+00
	2.939034180514714e+01,0.0
	-2.620499431702179e+00,0.0

 25	3.162277660168384e+07,0.000000000000000e+00
	2.629302390023034e+01,0.0
	3.126426933300094e+00,0.0

 26	3.981071705534978e+07,0.000000000000000e+00
	2.072041335571960e+01,0.0
	2.518190878353769e+00,0.0

 27	5.011872336272731e+07,0.000000000000000e+00
	1.360134336029985e+01,0.0
	2.105285101247630e+00,0.0

 28	6.309573444801943e+07,0.000000000000000e+00
	6.522725491423302e+00,0.0
	1.853640915041577e+00,0.0

 29	7.943282347242829e+07,0.000000000000000e+00
	-2.071335469849194e-01,0.0
	1.678617397782175e+00,0.0

 30	1.000000000000002e+08,0.000000000000000e+00
	-6.645617449589904e+00,0.0
	1.536177020286276e+00,0.0

 31	1.258925411794170e+08,0.000000000000000e+00
	-1.287063288399082e+01,0.0
	1.404436897857883e+00,0.0

 32	1.584893192461117e+08,0.000000000000000e+00
	-1.892939459152336e+01,0.0
	1.270787097148059e+00,0.0

 33	1.995262314968884e+08,0.000000000000000e+00
	-2.483798796894486e+01,0.0
	1.126550854506172e+00,0.0

 34	2.511886431509585e+08,0.000000000000000e+00
	-3.058523023417768e+01,0.0
	9.652277310388351e-01,0.0

 35	3.162277660168386e+08,0.000000000000000e+00
	-3.613600914823786e+01,0.0
	7.821168678411267e-01,0.0

 36	3.981071705534981e+08,0.000000000000000e+00
	-4.143555329394836e+01,0.0
	5.749103233731295e-01,0.0

 37	5.011872336272734e+08,0.000000000000000e+00
	-4.641747994199622e+01,0.0
	3.448962338069975e-01,0.0

 38	6.309573444801947e+08,0.000000000000000e+00
	-5.102097864169149e+01,0.0
	9.768981955372269e-02,0.0

 39	7.943282347242833e+08,0.000000000000000e+00
	-5.521129515255431e+01,0.0
	-1.567866994766421e-01,0.0

 40	1.000000000000002e+09,0.000000000000000e+00
	-5.899292023006034e+01,0.0
	-4.058330731622742e-01,0.0

