Title: *** multistage.cir ***
Date: Thu Feb  5 15:29:22  2015
Plotname: AC Analysis
Flags: complex
No. Variables: 3
No. Points: 41
Variables:
	0	frequency	frequency grid=3
	1	db(v(out)/v(in))	notype
	2	ph(v(out))-ph(v(in))	notype
Values:
 0	1.000000000000000e+05,0.000000000000000e+00
	-6.003427793911798e+01,0.0
	7.079237741353034e-01,0.0

 1	1.258925411794167e+05,0.000000000000000e+00
	-5.530609935116920e+01,0.0
	5.960299336837359e-01,0.0

 2	1.584893192461114e+05,0.000000000000000e+00
	-5.077386081489689e+01,0.0
	4.934303274137904e-01,0.0

 3	1.995262314968880e+05,0.000000000000000e+00
	-4.639963965932960e+01,0.0
	4.030541321734775e-01,0.0

 4	2.511886431509581e+05,0.000000000000000e+00
	-4.214340511794079e+01,0.0
	3.258905606986739e-01,0.0

 5	3.162277660168380e+05,0.000000000000000e+00
	-3.796968430456795e+01,0.0
	2.614721189699709e-01,0.0

 6	3.981071705534974e+05,0.000000000000000e+00
	-3.385003543297497e+01,0.0
	2.084951145992551e-01,0.0

 7	5.011872336272725e+05,0.000000000000000e+00
	-2.976257368073735e+01,0.0
	1.653192835492450e-01,0.0

 8	6.309573444801936e+05,0.000000000000000e+00
	-2.569006333564882e+01,0.0
	1.302807737649885e-01,0.0

 9	7.943282347242819e+05,0.000000000000000e+00
	-2.161747496628554e+01,0.0
	1.018524901211833e-01,0.0

 10	1.000000000000001e+06,0.000000000000000e+00
	-1.752924745945409e+01,0.0
	7.870854234292718e-02,0.0

 11	1.258925411794168e+06,0.000000000000000e+00
	-1.340600719276614e+01,0.0
	5.974069052387612e-02,0.0

 12	1.584893192461115e+06,0.000000000000000e+00
	-9.220066336334899e+00,0.0
	4.406291692658276e-02,0.0

 13	1.995262314968881e+06,0.000000000000000e+00
	-4.928391732233375e+00,0.0
	3.104000804674604e-02,0.0

 14	2.511886431509582e+06,0.000000000000000e+00
	-4.604074797095034e-01,0.0
	2.040594877007074e-02,0.0

 15	3.162277660168382e+06,0.000000000000000e+00
	4.305335335794690e+00,0.0
	1.266621739587979e-02,0.0

 16	3.981071705534976e+06,0.000000000000000e+00
	9.591176945370512e+00,0.0
	1.053688732220736e-02,0.0

 17	5.011872336272728e+06,0.000000000000000e+00
	1.584490690066444e+01,0.0
	2.526999957983342e-02,0.0

 18	6.309573444801939e+06,0.000000000000000e+00
	2.410202550776665e+01,0.0
	1.177918324094513e-01,0.0

 19	7.943282347242823e+06,0.000000000000000e+00
	3.494344506513443e+01,0.0
	8.395459680593352e-01,0.0

 20	1.000000000000001e+07,0.000000000000000e+00
	4.200443885349317e+01,0.0
	1.715950707686277e+00,0.0

 21	1.258925411794169e+07,0.000000000000000e+00
	3.027700253806535e+01,0.0
	6.561673959281303e-01,0.0

 22	1.584893192461115e+07,0.000000000000000e+00
	2.059876250245944e+01,0.0
	2.693336332405785e-01,0.0

 23	1.995262314968882e+07,0.000000000000000e+00
	1.343142593188653e+01,0.0
	1.393512810831734e-01,0.0

 24	2.511886431509583e+07,0.000000000000000e+00
	7.651085393520402e+00,0.0
	7.505240915711661e-02,0.0

 25	3.162277660168384e+07,0.000000000000000e+00
	2.607675463833989e+00,0.0
	3.332816309578216e-02,0.0

 26	3.981071705534978e+07,0.000000000000000e+00
	-2.019450332190894e+00,0.0
	5.150591264696872e-04,0.0

 27	5.011872336272731e+07,0.000000000000000e+00
	-6.400209374053361e+00,0.0
	-2.920786793134174e-02,0.0

 28	6.309573444801943e+07,0.000000000000000e+00
	-1.062969975000592e+01,0.0
	-5.905861228021930e-02,0.0

 29	7.943282347242829e+07,0.000000000000000e+00
	-1.476242891894104e+01,0.0
	-9.130842043536667e-02,0.0

 30	1.000000000000002e+08,0.000000000000000e+00
	-1.882907791424210e+01,0.0
	-1.279173287456951e-01,0.0

 31	1.258925411794170e+08,0.000000000000000e+00
	-2.284508400109844e+01,0.0
	-1.708107990323891e-01,0.0

 32	1.584893192461117e+08,0.000000000000000e+00
	-2.681493983466882e+01,0.0
	-2.219928179164577e-01,0.0

 33	1.995262314968884e+08,0.000000000000000e+00
	-3.073404633612382e+01,0.0
	-2.835421837328668e-01,0.0

 34	2.511886431509585e+08,0.000000000000000e+00
	-3.458920703506231e+01,0.0
	-3.574744766107349e-01,0.0

 35	3.162277660168386e+08,0.000000000000000e+00
	-3.835878013472704e+01,0.0
	-4.454217063746710e-01,0.0

 36	3.981071705534981e+08,0.000000000000000e+00
	-4.201385614868620e+01,0.0
	-5.480948163004005e-01,0.0

 37	5.011872336272734e+08,0.000000000000000e+00
	-4.552217514967251e+01,0.0
	-6.645911817935136e-01,0.0

 38	6.309573444801947e+08,0.000000000000000e+00
	-4.885584916501984e+01,0.0
	-7.918016987181173e-01,0.0

 39	7.943282347242833e+08,0.000000000000000e+00
	-5.200125463706747e+01,0.0
	-9.243287133566570e-01,0.0

 40	1.000000000000002e+09,0.000000000000000e+00
	-5.496569939774068e+01,0.0
	-1.055180434262844e+00,0.0

