Title: *** multistage.cir ***
Date: Wed Feb  4 19:30:17  2015
Plotname: AC Analysis
Flags: complex
No. Variables: 3
No. Points: 41
Variables:
	0	frequency	frequency grid=3
	1	db(v(out)/v(in))	notype
	2	ph(v(out))-ph(v(in))	notype
Values:
 0	1.000000000000000e+05,0.000000000000000e+00
	-5.694769481979805e+01,0.0
	7.247849514564555e-01,0.0

 1	1.258925411794167e+05,0.000000000000000e+00
	-5.218171903032538e+01,0.0
	6.122076793796876e-01,0.0

 2	1.584893192461114e+05,0.000000000000000e+00
	-4.761720643686012e+01,0.0
	5.080459142858136e-01,0.0

 3	1.995262314968880e+05,0.000000000000000e+00
	-4.321750627365427e+01,0.0
	4.156030655810367e-01,0.0

 4	2.511886431509581e+05,0.000000000000000e+00
	-3.894221177418547e+01,0.0
	3.361957329636769e-01,0.0

 5	3.162277660168380e+05,0.000000000000000e+00
	-3.475452841927460e+01,0.0
	2.695718736889627e-01,0.0

 6	3.981071705534974e+05,0.000000000000000e+00
	-3.062437681621599e+01,0.0
	2.145328564672729e-01,0.0

 7	5.011872336272725e+05,0.000000000000000e+00
	-2.652823357664969e+01,0.0
	1.694643735265287e-01,0.0

 8	6.309573444801936e+05,0.000000000000000e+00
	-2.244725481349059e+01,0.0
	1.326828038047757e-01,0.0

 9	7.943282347242819e+05,0.000000000000000e+00
	-1.836467275604996e+01,0.0
	1.026214496939262e-01,0.0

 10	1.000000000000001e+06,0.000000000000000e+00
	-1.426274810711609e+01,0.0
	7.791512605766521e-02,0.0

 11	1.258925411794168e+06,0.000000000000000e+00
	-1.011899333498661e+01,0.0
	5.743859261472541e-02,0.0

 12	1.584893192461115e+06,0.000000000000000e+00
	-5.900844634425779e+00,0.0
	4.034939706916842e-02,0.0

 13	1.995262314968881e+06,0.000000000000000e+00
	-1.557129852353679e+00,0.0
	2.620379735578493e-02,0.0

 14	2.511886431509582e+06,0.000000000000000e+00
	2.997134355546853e+00,0.0
	1.530393146571483e-02,0.0

 15	3.162277660168382e+06,0.000000000000000e+00
	7.910777978104271e+00,0.0
	9.784339480090384e-03,0.0

 16	3.981071705534976e+06,0.000000000000000e+00
	1.346325392928441e+01,0.0
	1.751627439519125e-02,0.0

 17	5.011872336272728e+06,0.000000000000000e+00
	2.023170070102088e+01,0.0
	7.023713697816829e-02,0.0

 18	6.309573444801939e+06,0.000000000000000e+00
	2.933202107082482e+01,0.0
	3.486183027253665e-01,0.0

 19	7.943282347242823e+06,0.000000000000000e+00
	3.507445049706570e+01,0.0
	1.396132245462871e+00,0.0

 20	1.000000000000001e+07,0.000000000000000e+00
	3.256546964289689e+01,0.0
	1.412096730266313e+00,0.0

 21	1.258925411794169e+07,0.000000000000000e+00
	2.707522310647168e+01,0.0
	6.920970797184625e-01,0.0

 22	1.584893192461115e+07,0.000000000000000e+00
	1.958095227818868e+01,0.0
	2.930700841342148e-01,0.0

 23	1.995262314968882e+07,0.000000000000000e+00
	1.323404306757021e+01,0.0
	1.149493404874454e-01,0.0

 24	2.511886431509583e+07,0.000000000000000e+00
	7.840334018246757e+00,0.0
	7.903671445701629e-03,0.0

 25	3.162277660168384e+07,0.000000000000000e+00
	3.022593022579491e+00,0.0
	-7.550771220950819e-02,0.0

 26	3.981071705534978e+07,0.000000000000000e+00
	-1.441441338587812e+00,0.0
	-1.530675843592897e-01,0.0

 27	5.011872336272731e+07,0.000000000000000e+00
	-5.672636017079307e+00,0.0
	-2.334198584605560e-01,0.0

 28	6.309573444801943e+07,0.000000000000000e+00
	-9.732512467114145e+00,0.0
	-3.217559415878852e-01,0.0

 29	7.943282347242829e+07,0.000000000000000e+00
	-1.364594105693328e+01,0.0
	-4.214399463624189e-01,0.0

 30	1.000000000000002e+08,0.000000000000000e+00
	-1.741429834884210e+01,0.0
	-5.341876779214665e-01,0.0

 31	1.258925411794170e+08,0.000000000000000e+00
	-2.102552848427206e+01,0.0
	-6.596155815748923e-01,0.0

 32	1.584893192461117e+08,0.000000000000000e+00
	-2.446449695283216e+01,0.0
	-7.946692355439703e-01,0.0

 33	1.995262314968884e+08,0.000000000000000e+00
	-2.772331949151361e+01,0.0
	-9.334887844005612e-01,0.0

 34	2.511886431509585e+08,0.000000000000000e+00
	-3.080729976758834e+01,0.0
	-1.068173578812583e+00,0.0

 35	3.162277660168386e+08,0.000000000000000e+00
	-3.373198914193242e+01,0.0
	-1.190466339983977e+00,0.0

 36	3.981071705534981e+08,0.000000000000000e+00
	-3.651354085687101e+01,0.0
	-1.293829520897145e+00,0.0

 37	5.011872336272734e+08,0.000000000000000e+00
	-3.916153584165757e+01,0.0
	-1.375080878938838e+00,0.0

 38	6.309573444801947e+08,0.000000000000000e+00
	-4.168082577645502e+01,0.0
	-1.434821655945617e+00,0.0

 39	7.943282347242833e+08,0.000000000000000e+00
	-4.407881802062609e+01,0.0
	-1.476466741589963e+00,0.0

 40	1.000000000000002e+09,0.000000000000000e+00
	-4.636995990540611e+01,0.0
	-1.504548718886062e+00,0.0

