Title: *** multistage.cir ***
Date: Wed Feb  4 18:06:34  2015
Plotname: AC Analysis
Flags: complex
No. Variables: 3
No. Points: 91
Variables:
	0	frequency	frequency grid=3
	1	db(v(out)/v(in))	notype
	2	ph(v(out))-ph(v(in))	notype
Values:
 0	1.000000000000000e+00,0.000000000000000e+00
	-6.493275882771559e+02,0.0
	-1.908580964467984e-02,0.0

 1	1.258925411794167e+00,0.000000000000000e+00
	-6.373286011250931e+02,0.0
	-2.402564911623904e-02,0.0

 2	1.584893192461114e+00,0.000000000000000e+00
	-6.253302058947727e+02,0.0
	-3.024258761971688e-02,0.0

 3	1.995262314968880e+00,0.000000000000000e+00
	-6.133327480632024e+02,0.0
	-3.806535991774748e-02,0.0

 4	2.511886431509581e+00,0.000000000000000e+00
	-6.013367740677141e+02,0.0
	-4.790589572210545e-02,0.0

 5	3.162277660168380e+00,0.000000000000000e+00
	-5.893431471814528e+02,0.0
	-6.027896148871412e-02,0.0

 6	3.981071705534974e+00,0.000000000000000e+00
	-5.773532286719771e+02,0.0
	-7.582502801328869e-02,0.0

 7	5.011872336272725e+00,0.000000000000000e+00
	-5.653691587341307e+02,0.0
	-9.533541297634852e-02,0.0

 8	6.309573444801935e+00,0.000000000000000e+00
	-5.533942864974072e+02,0.0
	-1.197768606139236e-01,0.0

 9	7.943282347242818e+00,0.000000000000000e+00
	-5.414338143933325e+02,0.0
	-1.503089932641836e-01,0.0

 10	1.000000000000001e+01,0.000000000000000e+00
	-5.294957304425965e+02,0.0
	-1.882812313702063e-01,0.0

 11	1.258925411794168e+01,0.000000000000000e+00
	-5.175920786101799e+02,0.0
	-2.351844286286548e-01,0.0

 12	1.584893192461115e+01,0.000000000000000e+00
	-5.057405103303050e+02,0.0
	-2.925166815221112e-01,0.0

 13	1.995262314968881e+01,0.000000000000000e+00
	-4.939657838213838e+02,0.0
	-3.615088072125349e-01,0.0

 14	2.511886431509582e+01,0.000000000000000e+00
	-4.823003595303985e+02,0.0
	-4.426642113096700e-01,0.0

 15	3.162277660168382e+01,0.000000000000000e+00
	-4.707826142596344e+02,0.0
	-5.351421080000656e-01,0.0

 16	3.981071705534977e+01,0.000000000000000e+00
	-4.594511411015435e+02,0.0
	-6.361846445670114e-01,0.0

 17	5.011872336272729e+01,0.000000000000000e+00
	-4.483352615173654e+02,0.0
	-7.409800731857529e-01,0.0

 18	6.309573444801940e+01,0.000000000000000e+00
	-4.374452955062729e+02,0.0
	-8.433080189687231e-01,0.0

 19	7.943282347242825e+01,0.000000000000000e+00
	-4.267682683566978e+02,0.0
	-9.368435402154573e-01,0.0

 20	1.000000000000001e+02,0.000000000000000e+00
	-4.162718997185726e+02,0.0
	-1.016451372047938e+00,0.0

 21	1.258925411794169e+02,0.000000000000000e+00
	-4.059138412105320e+02,0.0
	-1.078810702368268e+00,0.0

 22	1.584893192461116e+02,0.000000000000000e+00
	-3.956503966551368e+02,0.0
	-1.122266006296530e+00,0.0

 23	1.995262314968883e+02,0.000000000000000e+00
	-3.854411615406981e+02,0.0
	-1.146268844409677e+00,0.0

 24	2.511886431509584e+02,0.000000000000000e+00
	-3.752494503588026e+02,0.0
	-1.150825464219331e+00,0.0

 25	3.162277660168385e+02,0.000000000000000e+00
	-3.650401074058658e+02,0.0
	-1.136187655280513e+00,0.0

 26	3.981071705534980e+02,0.000000000000000e+00
	-3.547764971150193e+02,0.0
	-1.102868504518580e+00,0.0

 27	5.011872336272732e+02,0.000000000000000e+00
	-3.444183614164433e+02,0.0
	-1.051983177911355e+00,0.0

 28	6.309573444801945e+02,0.000000000000000e+00
	-3.339223464427229e+02,0.0
	-9.858326014398141e-01,0.0

 29	7.943282347242831e+02,0.000000000000000e+00
	-3.232467916871497e+02,0.0
	-9.084908566252491e-01,0.0

 30	1.000000000000002e+03,0.000000000000000e+00
	-3.123606237242498e+02,0.0
	-8.259808037755731e-01,0.0

 31	1.258925411794170e+03,0.000000000000000e+00
	-3.012527624489398e+02,0.0
	-7.456778628526324e-01,0.0

 32	1.584893192461117e+03,0.000000000000000e+00
	-2.899363133290449e+02,0.0
	-6.750559523737968e-01,0.0

 33	1.995262314968884e+03,0.000000000000000e+00
	-2.784446510880173e+02,0.0
	-6.204389153430381e-01,0.0

 34	2.511886431509586e+03,0.000000000000000e+00
	-2.668224019986160e+02,0.0
	-5.864151461679361e-01,0.0

 35	3.162277660168386e+03,0.000000000000000e+00
	-2.551171017761167e+02,0.0
	-5.760168269547781e-01,0.0

 36	3.981071705534981e+03,0.000000000000000e+00
	-2.433751118666630e+02,0.0
	-5.912894692237586e-01,0.0

 37	5.011872336272734e+03,0.000000000000000e+00
	-2.316418875885786e+02,0.0
	-6.338197275284035e-01,0.0

 38	6.309573444801948e+03,0.000000000000000e+00
	-2.199648217654422e+02,0.0
	-7.049637414787971e-01,0.0

 39	7.943282347242834e+03,0.000000000000000e+00
	-2.083964675548414e+02,0.0
	-8.056874434735531e-01,0.0

 40	1.000000000000003e+04,0.000000000000000e+00
	-1.969959102446662e+02,0.0
	-9.360588408913137e-01,0.0

 41	1.258925411794171e+04,0.000000000000000e+00
	-1.858263129527811e+02,0.0
	-1.094589569402326e+00,0.0

 42	1.584893192461118e+04,0.000000000000000e+00
	-1.749481291298359e+02,0.0
	-1.277793809114746e+00,0.0

 43	1.995262314968885e+04,0.000000000000000e+00
	-1.644103896661232e+02,0.0
	-1.480315095490520e+00,0.0

 44	2.511886431509587e+04,0.000000000000000e+00
	-1.542442990525361e+02,0.0
	-1.695606015964281e+00,0.0

 45	3.162277660168388e+04,0.000000000000000e+00
	-1.444610766478822e+02,0.0
	-1.916757287766877e+00,0.0

 46	3.981071705534984e+04,0.000000000000000e+00
	-1.350520845273981e+02,0.0
	-2.137198669392688e+00,0.0

 47	5.011872336272738e+04,0.000000000000000e+00
	-1.259896679253597e+02,0.0
	-2.351419327547161e+00,0.0

 48	6.309573444801952e+04,0.000000000000000e+00
	-1.172306804910071e+02,0.0
	-2.555826396626734e+00,0.0

 49	7.943282347242841e+04,0.000000000000000e+00
	-1.087246202888814e+02,0.0
	-2.749422550786812e+00,0.0

 50	1.000000000000003e+05,0.000000000000000e+00
	-1.004243139676850e+02,0.0
	-2.933893578351938e+00,0.0

 51	1.258925411794172e+05,0.000000000000000e+00
	-9.229511579182747e+01,0.0
	3.170098618638024e+00,0.0

 52	1.584893192461119e+05,0.000000000000000e+00
	-8.432052087533384e+01,0.0
	2.991014959258281e+00,0.0

 53	1.995262314968887e+05,0.000000000000000e+00
	-7.650454348228328e+01,0.0
	2.806462599888487e+00,0.0

 54	2.511886431509589e+05,0.000000000000000e+00
	-6.887169567512784e+01,0.0
	2.611378145858230e+00,0.0

 55	3.162277660168391e+05,0.000000000000000e+00
	-6.146433462136727e+01,0.0
	2.402170451424252e+00,0.0

 56	3.981071705534988e+05,0.000000000000000e+00
	-5.433618651842824e+01,0.0
	2.177618593271876e+00,0.0

 57	5.011872336272742e+05,0.000000000000000e+00
	-4.754159299193495e+01,0.0
	1.939414716027724e+00,0.0

 58	6.309573444801958e+05,0.000000000000000e+00
	-4.112261021869611e+01,0.0
	1.692020824881249e+00,0.0

 59	7.943282347242847e+05,0.000000000000000e+00
	-3.509795998630948e+01,0.0
	1.441798954570833e+00,0.0

 60	1.000000000000004e+06,0.000000000000000e+00
	-2.945647147842003e+01,0.0
	1.195705935728002e+00,0.0

 61	1.258925411794172e+06,0.000000000000000e+00
	-2.415515503851935e+01,0.0
	9.598562864500820e-01,0.0

 62	1.584893192461120e+06,0.000000000000000e+00
	-1.912137097392088e+01,0.0
	7.381626531626440e-01,0.0

 63	1.995262314968888e+06,0.000000000000000e+00
	-1.425751410885345e+01,0.0
	5.313235526359462e-01,0.0

 64	2.511886431509591e+06,0.000000000000000e+00
	-9.443355349836217e+00,0.0
	3.363138178803042e-01,0.0

 65	3.162277660168393e+06,0.000000000000000e+00
	-4.528340309729845e+00,0.0
	1.460430476609961e-01,0.0

 66	3.981071705534990e+06,0.000000000000000e+00
	6.967594170927012e-01,0.0
	-5.171210636630699e-02,0.0

 67	5.011872336272745e+06,0.000000000000000e+00
	6.575355628500611e+00,0.0
	-2.774715667061098e-01,0.0

 68	6.309573444801961e+06,0.000000000000000e+00
	1.384271995761690e+01,0.0
	-5.664077771857110e-01,0.0

 69	7.943282347242852e+06,0.000000000000000e+00
	2.567850904893491e+01,0.0
	-9.669725150500083e-01,0.0

 70	1.000000000000005e+07,0.000000000000000e+00
	2.689337878529479e+01,0.0
	1.625367987075470e+00,0.0

 71	1.258925411794173e+07,0.000000000000000e+00
	1.597684424730235e+01,0.0
	1.118917187227614e+00,0.0

 72	1.584893192461121e+07,0.000000000000000e+00
	8.969371610625966e+00,0.0
	7.510062449231318e-01,0.0

 73	1.995262314968889e+07,0.000000000000000e+00
	3.151650160504762e+00,0.0
	5.026135214235259e-01,0.0

 74	2.511886431509592e+07,0.000000000000000e+00
	-1.961807216079472e+00,0.0
	3.241026682167894e-01,0.0

 75	3.162277660168395e+07,0.000000000000000e+00
	-6.628320440621557e+00,0.0
	1.838169792138777e-01,0.0

 76	3.981071705534992e+07,0.000000000000000e+00
	-1.100196515978272e+01,0.0
	6.374498150194885e-02,0.0

 77	5.011872336272748e+07,0.000000000000000e+00
	-1.517024242257240e+01,0.0
	-4.704770401533009e-02,0.0

 78	6.309573444801965e+07,0.000000000000000e+00
	-1.917637671520429e+01,0.0
	-1.558023796979090e-01,0.0

 79	7.943282347242856e+07,0.000000000000000e+00
	-2.303290495121942e+01,0.0
	-2.674593553139904e-01,0.0

 80	1.000000000000005e+08,0.000000000000000e+00
	-2.673061559023072e+01,0.0
	-3.849806624937797e-01,0.0

 81	1.258925411794174e+08,0.000000000000000e+00
	-3.024656223634208e+01,0.0
	-5.091368549248793e-01,0.0

 82	1.584893192461122e+08,0.000000000000000e+00
	-3.355390729456325e+01,0.0
	-6.382375047526128e-01,0.0

 83	1.995262314968891e+08,0.000000000000000e+00
	-3.663371092573293e+01,0.0
	-7.683211442594861e-01,0.0

 84	2.511886431509594e+08,0.000000000000000e+00
	-3.948483434696904e+01,0.0
	-8.941088765331154e-01,0.0

 85	3.162277660168397e+08,0.000000000000000e+00
	-4.212662829682985e+01,0.0
	-1.010468330887873e+00,0.0

 86	3.981071705534995e+08,0.000000000000000e+00
	-4.459306059517561e+01,0.0
	-1.113685922256701e+00,0.0

 87	5.011872336272751e+08,0.000000000000000e+00
	-4.692279203495148e+01,0.0
	-1.202011683343511e+00,0.0

 88	6.309573444801968e+08,0.000000000000000e+00
	-4.915116305575292e+01,0.0
	-1.275484501635294e+00,0.0

 89	7.943282347242861e+08,0.000000000000000e+00
	-5.130668491254480e+01,0.0
	-1.335372605538701e+00,0.0

 90	1.000000000000006e+09,0.000000000000000e+00
	-5.341094887240135e+01,0.0
	-1.383553840081048e+00,0.0

