Title: *** multistage.cir ***
Date: Sun Feb  8 19:28:27  2015
Plotname: AC Analysis
Flags: complex
No. Variables: 3
No. Points: 51
Variables:
	0	frequency	frequency grid=3
	1	db(v(out)/v(in))	notype
	2	ph(v(out))-ph(v(in))	notype
Values:
 0	1.000000000000000e+04,0.000000000000000e+00
	-1.866034601256617e+02,0.0
	2.017761214649267e+00,0.0

 1	1.258925411794167e+04,0.000000000000000e+00
	-1.758037336134585e+02,0.0
	1.864214294679836e+00,0.0

 2	1.584893192461114e+04,0.000000000000000e+00
	-1.652558140387388e+02,0.0
	1.697501494725104e+00,0.0

 3	1.995262314968880e+04,0.000000000000000e+00
	-1.549523718288836e+02,0.0
	1.519732969141217e+00,0.0

 4	2.511886431509581e+04,0.000000000000000e+00
	-1.448871311122849e+02,0.0
	1.330701148011265e+00,0.0

 5	3.162277660168380e+04,0.000000000000000e+00
	-1.350675626856895e+02,0.0
	1.128501229820095e+00,0.0

 6	3.981071705534973e+04,0.000000000000000e+00
	-1.255225113357968e+02,0.0
	9.109198636562460e-01,0.0

 7	5.011872336272724e+04,0.000000000000000e+00
	-1.163021212550644e+02,0.0
	6.772073672982850e-01,0.0

 8	6.309573444801935e+04,0.000000000000000e+00
	-1.074683496270271e+02,0.0
	4.297547842141624e-01,0.0

 9	7.943282347242818e+04,0.000000000000000e+00
	-9.907639895917870e+01,0.0
	1.749555180274395e-01,0.0

 10	1.000000000000000e+05,0.000000000000000e+00
	-9.115292901302223e+01,0.0
	-7.750488898854696e-02,0.0

 11	1.258925411794168e+05,0.000000000000000e+00
	-8.368234842635337e+01,0.0
	-3.169698038156332e-01,0.0

 12	1.584893192461114e+05,0.000000000000000e+00
	-7.660969199787496e+01,0.0
	-5.346104747318213e-01,0.0

 13	1.995262314968881e+05,0.000000000000000e+00
	-6.985729797947393e+01,0.0
	-7.252005626625869e-01,0.0

 14	2.511886431509582e+05,0.000000000000000e+00
	-6.334421362272714e+01,0.0
	-8.872724682136371e-01,0.0

 15	3.162277660168382e+05,0.000000000000000e+00
	-5.699933886548538e+01,0.0
	-1.022168595213442e+00,0.0

 16	3.981071705534976e+05,0.000000000000000e+00
	-5.076633599774684e+01,0.0
	-1.132817803713078e+00,0.0

 17	5.011872336272728e+05,0.000000000000000e+00
	-4.460279747350928e+01,0.0
	-1.222751861883449e+00,0.0

 18	6.309573444801939e+05,0.000000000000000e+00
	-3.847672912167123e+01,0.0
	-1.295493157978934e+00,0.0

 19	7.943282347242824e+05,0.000000000000000e+00
	-3.236221796156305e+01,0.0
	-1.354246344071473e+00,0.0

 20	1.000000000000001e+06,0.000000000000000e+00
	-2.623490221723479e+01,0.0
	-1.401782171777219e+00,0.0

 21	1.258925411794169e+06,0.000000000000000e+00
	-2.006700089659771e+01,0.0
	-1.440421497481267e+00,0.0

 22	1.584893192461115e+06,0.000000000000000e+00
	-1.382101839825884e+01,0.0
	-1.472056039563864e+00,0.0

 23	1.995262314968882e+06,0.000000000000000e+00
	-7.440434134442092e+00,0.0
	-1.498157404214744e+00,0.0

 24	2.511886431509583e+06,0.000000000000000e+00
	-8.340774609900878e-01,0.0
	-1.519712226585876e+00,0.0

 25	3.162277660168383e+06,0.000000000000000e+00
	6.153082619921944e+00,0.0
	-1.536934947058966e+00,0.0

 26	3.981071705534978e+06,0.000000000000000e+00
	1.380132774951616e+01,0.0
	-1.548251925625310e+00,0.0

 27	5.011872336272730e+06,0.000000000000000e+00
	2.266684914603348e+01,0.0
	-1.546315705340023e+00,0.0

 28	6.309573444801942e+06,0.000000000000000e+00
	3.404471658685294e+01,0.0
	-1.496930926156764e+00,0.0

 29	7.943282347242827e+06,0.000000000000000e+00
	5.174548043619034e+01,0.0
	-1.139700203298685e+00,0.0

 30	1.000000000000001e+07,0.000000000000000e+00
	6.899653399607567e+01,0.0
	-2.852137551835496e+00,0.0

 31	1.258925411794169e+07,0.000000000000000e+00
	4.960842002252168e+01,0.0
	-3.069735037386262e+00,0.0

 32	1.584893192461116e+07,0.000000000000000e+00
	3.848150388456540e+01,0.0
	2.318328091080650e+00,0.0

 33	1.995262314968883e+07,0.000000000000000e+00
	2.680709355042453e+01,0.0
	1.895911505744924e+00,0.0

 34	2.511886431509584e+07,0.000000000000000e+00
	1.738031108601042e+01,0.0
	1.727394657310051e+00,0.0

 35	3.162277660168385e+07,0.000000000000000e+00
	9.385437964712649e+00,0.0
	1.633321025599876e+00,0.0

 36	3.981071705534980e+07,0.000000000000000e+00
	2.198415478584921e+00,0.0
	1.565005796105798e+00,0.0

 37	5.011872336272732e+07,0.000000000000000e+00
	-4.516804067949098e+00,0.0
	1.505290249555017e+00,0.0

 38	6.309573444801944e+07,0.000000000000000e+00
	-1.094513354592651e+01,0.0
	1.446026017133837e+00,0.0

 39	7.943282347242831e+07,0.000000000000000e+00
	-1.719081528655523e+01,0.0
	1.382071851468350e+00,0.0

 40	1.000000000000002e+08,0.000000000000000e+00
	-2.331165486550898e+01,0.0
	1.309284629004380e+00,0.0

 41	1.258925411794170e+08,0.000000000000000e+00
	-2.933611261531689e+01,0.0
	1.223728001991570e+00,0.0

 42	1.584893192461117e+08,0.000000000000000e+00
	-3.527164571866754e+01,0.0
	1.121360034791426e+00,0.0

 43	1.995262314968884e+08,0.000000000000000e+00
	-4.110818105935483e+01,0.0
	9.980076971639154e-01,0.0

 44	2.511886431509586e+08,0.000000000000000e+00
	-4.681893986748589e+01,0.0
	8.496316122078078e-01,0.0

 45	3.162277660168387e+08,0.000000000000000e+00
	-5.236063799491006e+01,0.0
	6.729663100028784e-01,0.0

 46	3.981071705534982e+08,0.000000000000000e+00
	-5.767576930909180e+01,0.0
	4.666017408407441e-01,0.0

 47	5.011872336272735e+08,0.000000000000000e+00
	-6.270036573747012e+01,0.0
	2.323794121812823e-01,0.0

 48	6.309573444801948e+08,0.000000000000000e+00
	-6.737933477004647e+01,0.0
	-2.340850753467882e-02,0.0

 49	7.943282347242835e+08,0.000000000000000e+00
	-7.168607148454390e+01,0.0
	-2.898416392009285e-01,0.0

 50	1.000000000000003e+09,0.000000000000000e+00
	-7.563549405881436e+01,0.0
	-5.527519265503346e-01,0.0

